Time [s],Value,Parity Error,Framing Error
0.017168000000000,R,,
0.019438000000000,0,,
0.020892000000000,0,,
0.021962000000000,6,,
0.023006000000000,\r,,
0.066180000000000,R,,
0.068451000000000,0,,
0.069905000000000,0,,
0.070974000000000,6,,
0.072019000000000,\r,,
0.115190000000000,R,,
0.117460000000000,0,,
0.118914000000000,0,,
0.119984000000000,6,,
0.121028000000000,\r,,
0.164202000000000,R,,
0.166472000000000,0,,
0.167926000000000,0,,
0.168996000000000,6,,
0.170040000000000,\r,,
0.213214000000000,R,,
0.215484000000000,0,,
0.216938000000000,0,,
0.218008000000000,6,,
0.219052000000000,\r,,
0.262230000000000,R,,
0.264500000000000,0,,
0.265955000000000,0,,
0.267024000000000,6,,
0.268069000000000,\r,,
0.311247000000000,R,,
0.313517000000000,0,,
0.314972000000000,0,,
0.316041000000000,6,,
0.317086000000000,\r,,
0.360263000000000,R,,
0.362533000000000,0,,
0.363987000000000,0,,
0.365057000000000,6,,
0.366101000000000,\r,,
0.409279000000000,R,,
0.411549000000000,0,,
0.413004000000000,0,,
0.414073000000000,6,,
0.415118000000000,\r,,
0.458295000000000,R,,
0.460565000000000,0,,
0.462019000000000,0,,
0.463089000000000,6,,
0.464133000000000,\r,,
0.507311000000000,R,,
0.509581000000000,0,,
0.511036000000000,0,,
0.512105000000000,6,,
0.513150000000000,\r,,
0.556319000000000,R,,
0.558589000000000,0,,
0.560043000000000,0,,
0.561112000000000,6,,
0.562157000000000,\r,,
0.605336000000000,R,,
0.607606000000000,0,,
0.609061000000000,0,,
0.610130000000000,6,,
0.611174000000000,\r,,
0.654343000000000,R,,
0.656613000000000,0,,
0.658068000000000,0,,
0.659137000000000,6,,
0.660181000000000,\r,,
0.703353000000000,R,,
0.705623000000000,0,,
0.707077000000000,0,,
0.708146000000000,6,,
0.709191000000000,\r,,
0.752368000000000,R,,
0.754638000000000,0,,
0.756093000000000,0,,
0.757162000000000,6,,
0.758206000000000,\r,,
0.801387000000000,R,,
0.803657000000000,0,,
0.805112000000000,0,,
0.806181000000000,6,,
0.807225000000000,\r,,
0.850406000000000,R,,
0.852676000000000,0,,
0.854131000000000,0,,
0.855200000000000,6,,
0.856244000000000,\r,,
0.899427000000000,R,,
0.901698000000000,0,,
0.903152000000000,0,,
0.904221000000000,6,,
0.905266000000000,\r,,
0.948438000000000,R,,
0.950708000000000,0,,
0.952162000000000,0,,
0.953231000000000,6,,
0.954276000000000,\r,,
0.997455000000000,R,,
0.999725000000000,0,,
1.001179000000000,0,,
1.002248000000000,6,,
1.003293000000000,\r,,
1.046471000000000,R,,
1.048741000000000,0,,
1.050195000000000,0,,
1.051264000000000,6,,
1.052309000000000,\r,,
1.095481000000000,R,,
1.097752000000000,0,,
1.099206000000000,0,,
1.100275000000000,6,,
1.101320000000000,\r,,
1.144494000000000,R,,
1.146764000000000,0,,
1.148218000000000,0,,
1.149288000000000,6,,
1.150332000000000,\r,,
1.193512000000000,R,,
1.195783000000000,0,,
1.197237000000000,0,,
1.198307000000000,6,,
1.199351000000000,\r,,
1.242528000000000,R,,
1.244799000000000,0,,
1.246253000000000,0,,
1.247322000000000,6,,
1.248367000000000,\r,,
1.291549000000000,R,,
1.293819000000000,0,,
1.295274000000000,0,,
1.296343000000000,6,,
1.297388000000000,\r,,
1.340566000000000,R,,
1.342836000000000,0,,
1.344291000000000,0,,
1.345360000000000,6,,
1.346405000000000,\r,,
1.389584000000000,R,,
1.391855000000000,0,,
1.393309000000000,0,,
1.394379000000000,6,,
1.395423000000000,\r,,
1.438603000000000,R,,
1.440873000000000,0,,
1.442328000000000,0,,
1.443397000000000,6,,
1.444442000000000,\r,,
1.487624000000000,R,,
1.489894000000000,0,,
1.491349000000000,0,,
1.492418000000000,6,,
1.493463000000000,\r,,
1.536637000000000,R,,
1.538908000000000,0,,
1.540362000000000,0,,
1.541431000000000,6,,
1.542476000000000,\r,,
1.585656000000000,R,,
1.587927000000000,0,,
1.589381000000000,0,,
1.590450000000000,6,,
1.591495000000000,\r,,
1.634673000000000,R,,
1.636944000000000,0,,
1.638398000000000,0,,
1.639468000000000,6,,
1.640512000000000,\r,,
1.683694000000000,R,,
1.685964000000000,0,,
1.687419000000000,0,,
1.688488000000000,6,,
1.689533000000000,\r,,
1.732708000000000,R,,
1.734978000000000,0,,
1.736433000000000,0,,
1.737502000000000,6,,
1.738547000000000,\r,,
1.781723000000000,R,,
1.783994000000000,0,,
1.785448000000000,0,,
1.786518000000000,6,,
1.787562000000000,\r,,
1.830739000000000,R,,
1.833009000000000,0,,
1.834463000000000,0,,
1.835533000000000,6,,
1.836577000000000,\r,,
1.879759000000000,R,,
1.882030000000000,0,,
1.883484000000000,0,,
1.884554000000000,6,,
1.885598000000000,\r,,
1.928783000000000,R,,
1.931053000000000,0,,
1.932508000000000,0,,
1.933577000000000,6,,
1.934622000000000,\r,,
1.977796000000000,R,,
1.980067000000000,0,,
1.981521000000000,0,,
1.982590000000000,6,,
1.983635000000000,\r,,
2.026814000000000,R,,
2.029084000000000,0,,
2.030539000000000,0,,
2.031608000000000,6,,
2.032653000000000,\r,,
2.075833000000000,R,,
2.078103000000000,0,,
2.079558000000000,0,,
2.080627000000000,6,,
2.081672000000000,\r,,
2.124851000000000,R,,
2.127121000000000,0,,
2.128576000000000,0,,
2.129645000000000,6,,
2.130690000000000,\r,,
2.173865000000000,R,,
2.176135000000000,0,,
2.177590000000000,0,,
2.178659000000000,6,,
2.179704000000000,\r,,
2.222881000000000,R,,
2.225151000000000,0,,
2.226606000000000,0,,
2.227675000000000,6,,
2.228720000000000,\r,,
2.271896000000000,R,,
2.274166000000000,0,,
2.275621000000000,0,,
2.276690000000000,6,,
2.277735000000000,\r,,
2.320915000000000,R,,
2.323186000000000,0,,
2.324640000000000,0,,
2.325709000000000,6,,
2.326754000000000,\r,,
2.369934000000000,R,,
2.372204000000000,0,,
2.373659000000000,0,,
2.374728000000000,6,,
2.375772000000000,\r,,
2.418950000000000,R,,
2.421221000000000,0,,
2.422675000000000,0,,
2.423744000000000,6,,
2.424789000000000,\r,,
2.467969000000000,R,,
2.470239000000000,0,,
2.471693000000000,0,,
2.472763000000000,6,,
2.473807000000000,\r,,
2.516989000000000,R,,
2.519259000000000,0,,
2.520714000000000,0,,
2.521783000000000,6,,
2.522828000000000,\r,,
2.566008000000000,R,,
2.568279000000000,0,,
2.569733000000000,0,,
2.570803000000000,6,,
2.571847000000000,\r,,
2.615018000000000,R,,
2.617288000000000,0,,
2.618742000000000,0,,
2.619812000000000,6,,
2.620856000000000,\r,,
2.664035000000000,R,,
2.666305000000000,0,,
2.667760000000000,0,,
2.668829000000000,6,,
2.669874000000000,\r,,
2.713046000000000,R,,
2.715316000000000,0,,
2.716770000000000,0,,
2.717840000000000,6,,
2.718884000000000,\r,,
2.762062000000000,R,,
2.764332000000000,0,,
2.765787000000000,0,,
2.766856000000000,6,,
2.767900000000000,\r,,
2.811080000000000,R,,
2.813351000000000,0,,
2.814805000000000,0,,
2.815875000000000,6,,
2.816919000000000,\r,,
2.860100000000000,R,,
2.862370000000000,0,,
2.863824000000000,0,,
2.864894000000000,6,,
2.865938000000000,\r,,
2.909145000000000,R,,
2.911415000000000,0,,
2.912870000000000,0,,
2.913939000000000,6,,
2.914984000000000,\r,,
2.958162000000000,R,,
2.960433000000000,0,,
2.961887000000000,0,,
2.962956000000000,6,,
2.964001000000000,\r,,
3.007177000000000,R,,
3.009447000000000,0,,
3.010902000000000,0,,
3.011971000000000,6,,
3.013016000000000,\r,,
3.056196000000000,R,,
3.058466000000000,0,,
3.059921000000000,0,,
3.060990000000000,6,,
3.062035000000000,\r,,
3.105213000000000,R,,
3.107483000000000,0,,
3.108937000000000,0,,
3.110006000000000,6,,
3.111051000000000,\r,,
3.154226000000000,R,,
3.156496000000000,0,,
3.157950000000000,0,,
3.159020000000000,6,,
3.160064000000000,\r,,
3.203240000000000,R,,
3.205510000000000,0,,
3.206965000000000,0,,
3.208034000000000,6,,
3.209078000000000,\r,,
3.252255000000000,R,,
3.254526000000000,0,,
3.255980000000000,0,,
3.257049000000000,6,,
3.258094000000000,\r,,
3.301266000000000,R,,
3.303536000000000,0,,
3.304991000000000,0,,
3.306060000000000,6,,
3.307104000000000,\r,,
3.350281000000000,R,,
3.352551000000000,0,,
3.354005000000000,0,,
3.355074000000000,6,,
3.356119000000000,\r,,
3.399297000000000,R,,
3.401567000000000,0,,
3.403022000000000,0,,
3.404091000000000,6,,
3.405135000000000,\r,,
3.448306000000000,R,,
3.450576000000000,0,,
3.452030000000000,0,,
3.453100000000000,6,,
3.454144000000000,\r,,
3.497323000000000,R,,
3.499593000000000,0,,
3.501048000000000,0,,
3.502117000000000,6,,
3.503162000000000,\r,,
3.546340000000000,R,,
3.548610000000000,0,,
3.550064000000000,0,,
3.551133000000000,6,,
3.552178000000000,\r,,
3.595353000000000,R,,
3.597623000000000,0,,
3.599077000000000,0,,
3.600147000000000,6,,
3.601191000000000,\r,,
3.644364000000000,R,,
3.646634000000000,0,,
3.648088000000000,0,,
3.649158000000000,6,,
3.650202000000000,\r,,
3.693374000000000,R,,
3.695644000000000,0,,
3.697098000000000,0,,
3.698167000000000,6,,
3.699212000000000,\r,,
3.742386000000000,R,,
3.744656000000000,0,,
3.746110000000000,0,,
3.747180000000000,6,,
3.748224000000000,\r,,
3.791398000000000,R,,
3.793668000000000,0,,
3.795122000000000,0,,
3.796191000000000,6,,
3.797236000000000,\r,,
3.840410000000000,R,,
3.842680000000000,0,,
3.844135000000000,0,,
3.845204000000000,6,,
3.846248000000000,\r,,
3.889425000000000,R,,
3.891695000000000,0,,
3.893149000000000,0,,
3.894219000000000,6,,
3.895263000000000,\r,,
3.938439000000000,R,,
3.940709000000000,0,,
3.942164000000000,0,,
3.943233000000000,6,,
3.944278000000000,\r,,
3.987454000000000,R,,
3.989724000000000,0,,
3.991179000000000,0,,
3.992248000000000,6,,
3.993293000000000,\r,,
4.036472000000000,R,,
4.038742000000000,0,,
4.040196000000000,0,,
4.041266000000000,6,,
4.042310000000000,\r,,
4.085489000000000,R,,
4.087760000000000,0,,
4.089214000000000,0,,
4.090283000000000,6,,
4.091328000000000,\r,,
4.134507000000000,R,,
4.136777000000000,0,,
4.138231000000000,0,,
4.139300000000000,6,,
4.140345000000000,\r,,
4.183518000000000,R,,
4.185788000000000,0,,
4.187242000000000,0,,
4.188311000000000,6,,
4.189356000000000,\r,,
4.232531000000000,R,,
4.234801000000000,0,,
4.236256000000000,0,,
4.237325000000000,6,,
4.238369000000000,\r,,
4.281547000000000,R,,
4.283817000000000,0,,
4.285271000000000,0,,
4.286341000000000,6,,
4.287385000000000,\r,,
4.330566000000000,R,,
4.332836000000000,0,,
4.334290000000000,0,,
4.335360000000000,6,,
4.336404000000000,\r,,
4.379579000000000,R,,
4.381849000000000,0,,
4.383304000000000,0,,
4.384373000000000,6,,
4.385418000000000,\r,,
4.428594000000000,R,,
4.430864000000000,0,,
4.432319000000000,0,,
4.433388000000000,6,,
4.434433000000000,\r,,
4.477610000000000,R,,
4.479880000000000,0,,
4.481335000000000,0,,
4.482404000000000,6,,
4.483448000000000,\r,,
4.526626000000000,R,,
4.528897000000000,0,,
4.530351000000000,0,,
4.531420000000000,6,,
4.532465000000000,\r,,
4.575638000000000,R,,
4.577908000000000,0,,
4.579362000000000,0,,
4.580432000000000,6,,
4.581476000000000,\r,,
4.624651000000000,R,,
4.626921000000000,0,,
4.628376000000000,0,,
4.629445000000000,6,,
4.630489000000000,\r,,
4.673668000000000,R,,
4.675938000000000,0,,
4.677393000000000,0,,
4.678462000000000,6,,
4.679506000000000,\r,,
4.722687000000000,R,,
4.724957000000000,0,,
4.726411000000000,0,,
4.727481000000000,6,,
4.728525000000000,\r,,
4.771707000000000,R,,
4.773977000000000,0,,
4.775432000000000,0,,
4.776501000000000,6,,
4.777545000000000,\r,,
4.820719000000000,R,,
4.822989000000000,0,,
4.824444000000000,0,,
4.825513000000000,6,,
4.826557000000000,\r,,
4.869738000000000,R,,
4.872009000000000,0,,
4.873463000000000,0,,
4.874533000000000,6,,
4.875577000000000,\r,,
4.918752000000000,R,,
4.921022000000000,0,,
4.922476000000000,0,,
4.923546000000000,6,,
4.924590000000000,\r,,
4.967774000000000,R,,
4.970044000000000,0,,
4.971498000000000,0,,
4.972568000000000,6,,
4.973612000000000,\r,,
5.016783000000000,R,,
5.019054000000000,0,,
5.020508000000000,0,,
5.021577000000000,6,,
5.022622000000000,\r,,
5.065803000000000,R,,
5.068074000000000,0,,
5.069528000000000,0,,
5.070597000000000,6,,
5.071642000000000,\r,,
5.114821000000000,R,,
5.117091000000000,0,,
5.118546000000000,0,,
5.119615000000000,6,,
5.120660000000000,\r,,
5.163842000000000,R,,
5.166113000000000,0,,
5.167567000000000,0,,
5.168636000000000,6,,
5.169681000000000,\r,,
5.212848000000000,R,,
5.215118000000000,0,,
5.216573000000000,0,,
5.217642000000000,6,,
5.218686000000000,\r,,
5.261860000000000,R,,
5.264130000000000,0,,
5.265585000000000,0,,
5.266654000000000,6,,
5.267699000000000,\r,,
5.310873000000000,R,,
5.313143000000000,0,,
5.314597000000000,0,,
5.315666000000000,6,,
5.316710000000000,\r,,
5.359887000000000,R,,
5.362157000000000,0,,
5.363611000000000,0,,
5.364681000000000,6,,
5.365725000000000,\r,,
5.408901000000000,R,,
5.411171000000000,0,,
5.412625000000000,0,,
5.413694000000000,6,,
5.414738000000000,\r,,
5.457915000000000,R,,
5.460185000000000,0,,
5.461639000000000,0,,
5.462709000000000,6,,
5.463753000000000,\r,,
5.506924000000000,R,,
5.509194000000000,0,,
5.510649000000000,0,,
5.511718000000000,6,,
5.512762000000000,\r,,
5.555939000000000,R,,
5.558209000000000,0,,
5.559663000000000,0,,
5.560732000000000,6,,
5.561777000000000,\r,,
5.604955000000000,R,,
5.607226000000000,0,,
5.608680000000000,0,,
5.609750000000000,6,,
5.610794000000000,\r,,
5.653964000000000,R,,
5.656234000000000,0,,
5.657689000000000,0,,
5.658758000000000,6,,
5.659803000000000,\r,,
5.702981000000000,R,,
5.705251000000000,0,,
5.706706000000000,0,,
5.707775000000000,6,,
5.708820000000000,\r,,
5.751997000000000,R,,
5.754267000000000,0,,
5.755721000000000,0,,
5.756791000000000,6,,
5.757835000000000,\r,,
5.801010000000000,R,,
5.803280000000000,0,,
5.804734000000000,0,,
5.805803000000000,6,,
5.806848000000000,\r,,
5.850025000000000,R,,
5.852295000000000,0,,
5.853749000000000,0,,
5.854818000000000,6,,
5.855863000000000,\r,,
5.899028000000000,R,,
5.901298000000000,0,,
5.902752000000000,0,,
5.903821000000000,6,,
5.904866000000000,\r,,
5.948041000000000,R,,
5.950311000000000,0,,
5.951766000000000,0,,
5.952835000000000,6,,
5.953879000000000,\r,,
5.997058000000000,R,,
5.999328000000000,0,,
6.000782000000000,0,,
6.001851000000000,6,,
6.002896000000000,\r,,
6.046068000000000,R,,
6.048338000000000,0,,
6.049793000000000,0,,
6.050862000000000,6,,
6.051906000000000,\r,,
6.095082000000000,R,,
6.097352000000000,0,,
6.098806000000000,0,,
6.099875000000000,6,,
6.100919000000000,\r,,
